Title: * C:\users\delarosa\Desktop\senior-design\spice-sims\Output_python_generated.asc
Date: Sat May 09 19:01:15 2020
Plotname: Operating Point
Flags: real
No. Variables: 96
No. Points:            1
Offset:   0.0000000000000000e+000
Command: Linear Technology Corporation LTspice XVII
Backannotation: x4 out vdd vss + - bd bs
Backannotation: x1 out vdd vss + - bd bs
Backannotation: x3 out vdd vss + - bd bs
Backannotation: x2 out vdd vss + - bd bs
Backannotation: x5 out vdd vss + - bd bs
Backannotation: x6 out vdd vss + - bd bs
Backannotation: x7 out vdd vss + - bd bs
Variables:
	0	V(vi)	voltage
	1	V(vdd)	voltage
	2	V(vss)	voltage
	3	V(bd)	voltage
	4	V(n003)	voltage
	5	V(c1)	voltage
	6	V(n002)	voltage
	7	V(n008)	voltage
	8	V(c2)	voltage
	9	V(n012)	voltage
	10	V(c3)	voltage
	11	V(n011)	voltage
	12	V(n010)	voltage
	13	V(n001)	voltage
	14	V(n007)	voltage
	15	V(n004)	voltage
	16	V(n009)	voltage
	17	V(n005)	voltage
	18	V(vo)	voltage
	19	V(n013)	voltage
	20	V(n006)	voltage
	21	V(vo2)	voltage
	22	I(C1)	device_current
	23	I(C7)	device_current
	24	I(C2)	device_current
	25	I(L10)	device_current
	26	I(L8)	device_current
	27	I(L1)	device_current
	28	I(R12)	device_current
	29	I(R11)	device_current
	30	I(R16)	device_current
	31	I(R15)	device_current
	32	I(R14)	device_current
	33	I(R10)	device_current
	34	I(R9)	device_current
	35	I(R8)	device_current
	36	I(R7)	device_current
	37	I(R4)	device_current
	38	I(R1)	device_current
	39	I(R5)	device_current
	40	I(R2)	device_current
	41	I(R6)	device_current
	42	I(R3)	device_current
	43	I(V4)	device_current
	44	I(V3)	device_current
	45	I(V2)	device_current
	46	I(V1)	device_current
	47	Ix(x4:OUT)	subckt_current
	48	Ix(x4:VDD)	subckt_current
	49	Ix(x4:VSS)	subckt_current
	50	Ix(x4:+)	subckt_current
	51	Ix(x4:-)	subckt_current
	52	Ix(x4:BD)	subckt_current
	53	Ix(x4:BS)	subckt_current
	54	Ix(x1:OUT)	subckt_current
	55	Ix(x1:VDD)	subckt_current
	56	Ix(x1:VSS)	subckt_current
	57	Ix(x1:+)	subckt_current
	58	Ix(x1:-)	subckt_current
	59	Ix(x1:BD)	subckt_current
	60	Ix(x1:BS)	subckt_current
	61	Ix(x3:OUT)	subckt_current
	62	Ix(x3:VDD)	subckt_current
	63	Ix(x3:VSS)	subckt_current
	64	Ix(x3:+)	subckt_current
	65	Ix(x3:-)	subckt_current
	66	Ix(x3:BD)	subckt_current
	67	Ix(x3:BS)	subckt_current
	68	Ix(x2:OUT)	subckt_current
	69	Ix(x2:VDD)	subckt_current
	70	Ix(x2:VSS)	subckt_current
	71	Ix(x2:+)	subckt_current
	72	Ix(x2:-)	subckt_current
	73	Ix(x2:BD)	subckt_current
	74	Ix(x2:BS)	subckt_current
	75	Ix(x5:OUT)	subckt_current
	76	Ix(x5:VDD)	subckt_current
	77	Ix(x5:VSS)	subckt_current
	78	Ix(x5:+)	subckt_current
	79	Ix(x5:-)	subckt_current
	80	Ix(x5:BD)	subckt_current
	81	Ix(x5:BS)	subckt_current
	82	Ix(x6:OUT)	subckt_current
	83	Ix(x6:VDD)	subckt_current
	84	Ix(x6:VSS)	subckt_current
	85	Ix(x6:+)	subckt_current
	86	Ix(x6:-)	subckt_current
	87	Ix(x6:BD)	subckt_current
	88	Ix(x6:BS)	subckt_current
	89	Ix(x7:OUT)	subckt_current
	90	Ix(x7:VDD)	subckt_current
	91	Ix(x7:VSS)	subckt_current
	92	Ix(x7:+)	subckt_current
	93	Ix(x7:-)	subckt_current
	94	Ix(x7:BD)	subckt_current
	95	Ix(x7:BS)	subckt_current
Values:
0		-2.419433593750000e-001
	9.000000000000000e+000
	-9.000000000000000e+000
	-8.000000000000000e+000
	-1.137204987160525e-008
	-1.023484334419466e-007
	-1.137205179691783e-008
	-1.137503251864778e-008
	-2.275006499879027e-008
	-1.137503146556779e-008
	-2.275006292629671e-008
	-1.137503147040666e-008
	-2.419433593750000e-001
	-2.419433593750000e-001
	-1.137503255715306e-008
	-1.137235694948688e-007
	-3.413778910031569e-008
	-1.143644029287764e-008
	1.362588830121816e-007
	-3.413778842335097e-008
	-2.419433593750000e-001
	1.362588830121816e-008
	1.925312580403061e-019
	3.850528383419482e-021
	4.838866959999371e-022
	0.000000000000000e+000
	0.000000000000000e+000
	0.000000000000000e+000
	1.362588830121816e-012
	1.362588830121816e-012
	-1.137503146556779e-012
	-1.137503251864778e-012
	-1.137204987160525e-012
	2.270134813047333e-013
	1.476953233050593e-012
	2.270134880743805e-013
	1.022871292019911e-012
	4.838867617092303e-022
	3.850528398412304e-021
	-1.137503146072892e-012
	-1.137503248014249e-012
	-1.137204794629267e-012
	1.925312579345819e-019
	0.000000000000000e+000
	2.240936126826298e-003
	-2.240936124776752e-003
	0.000000000000000e+000
	1.109787012721483e-012
	3.201337312632101e-004
	-3.201337323548122e-004
	0.000000000000000e+000
	0.000000000000000e+000
	0.000000000000000e+000
	0.000000000000000e+000
	1.110083880828837e-012
	3.201337313700171e-004
	-3.201337324619160e-004
	0.000000000000000e+000
	0.000000000000000e+000
	0.000000000000000e+000
	0.000000000000000e+000
	1.110107326700817e-012
	3.201337313699936e-004
	-3.201337324619160e-004
	0.000000000000000e+000
	0.000000000000000e+000
	0.000000000000000e+000
	0.000000000000000e+000
	9.954481087082801e-013
	3.201337311124945e-004
	-3.201337320897581e-004
	0.000000000000000e+000
	0.000000000000000e+000
	0.000000000000000e+000
	0.000000000000000e+000
	1.995903984620879e-013
	3.201337322096509e-004
	-3.201337323910568e-004
	0.000000000000000e+000
	0.000000000000000e+000
	0.000000000000000e+000
	0.000000000000000e+000
	-2.867071096051944e-012
	3.201337355610300e-004
	-3.201337326757712e-004
	0.000000000000000e+000
	0.000000000000000e+000
	0.000000000000000e+000
	0.000000000000000e+000
	1.995903984620879e-013
	3.201337322096524e-004
	-3.201337323910568e-004
	0.000000000000000e+000
	0.000000000000000e+000
	0.000000000000000e+000
	0.000000000000000e+000
